!
! C:\Users\SOE_Engineer\Desktop\VNA PLOTS JPL\Fresh Start\Reshape9_-30dBm_noAtt.S2P
!
! Touchstone 1.1 file saved by VNA.EXE V1.65 (www.ke5fx.com/gpib/readme.htm)
! 10/6/2023 1:14:13 PM
!
!    Source: HEWLETT PACKARD,8720B,0,2.01
!  Min freq: 1.300000E+008 Hz
!  Max freq: 1.997000E+010 Hz
!    Points: 801
!    Params: S11 S21 S12 S22
!
!!!!!
# GHZ S MA R 50
0.1300000000000000 0.952917 -27.352855 0.005043 -14.533584 3.654288 16.775149 0.147184 -144.287272 
0.1548000000000000 1.011328 -27.912101 0.007279 -20.963270 4.803094 72.126848 0.082493 -136.699500 
0.1796000000000000 0.940718 -30.646580 0.008754 -26.217494 1.393586 131.198200 0.281462 -115.564841 
0.2044000000000000 0.966773 -37.326763 0.012202 -30.029830 1.329944 43.659309 0.225000 -133.189071 
0.2292000000000000 0.935595 -40.819008 0.015766 -42.976498 0.550749 99.736340 0.246783 -140.340945 
0.2540000000000000 0.574612 -66.044617 0.016951 -40.750786 26.679433 -77.674101 0.352408 133.743883 
0.2788000000000000 1.150090 -36.714822 0.042973 -32.032343 28.144454 16.025136 0.258048 -81.553674 
0.3036000000000000 1.399150 -48.655598 0.025979 -52.122999 20.545520 136.794095 1.002280 -141.095528 
0.3284000000000000 1.451427 -49.080404 0.039727 -64.408089 13.445535 -24.389875 0.602400 -157.638023 
0.3532000000000000 1.374915 -81.326742 0.053427 -68.500181 6.658004 -62.945423 1.060268 -145.116062 
0.3780000000000000 0.891648 -133.224815 0.069448 -73.262168 19.774756 110.410995 0.719557 170.309167 
0.4028000000000000 0.755510 -66.261691 0.054043 -74.971542 34.209087 148.732169 0.627571 113.761639 
0.4276000000000000 1.283819 -68.201126 0.095894 -89.794870 12.320730 155.681770 0.440901 148.254408 
0.4524000000000000 1.124735 -84.441311 0.118127 -102.654839 7.212186 34.683133 0.463791 166.409975 
0.4772000000000000 0.308616 -89.620390 0.152136 -130.380957 2.971001 -19.524130 0.355911 -150.569853 
0.5020000000000000 0.916000 -120.455672 0.117575 -170.049310 6.734981 40.124154 0.556374 121.773866 
0.5268000000000001 0.939249 -130.474894 0.054644 -155.395833 3.325908 1.890867 0.640495 179.260156 
0.5516000000000000 1.370519 -72.978878 0.062942 -153.497063 7.182227 -36.852759 0.571619 118.306760 
0.5764000000000000 0.929276 -108.170759 0.067641 -137.575896 5.547442 60.166292 0.628513 149.657451 
0.6012000000000000 0.640027 -126.157927 0.104792 -136.601869 7.642441 -157.708469 0.473007 172.559984 
0.6260000000000000 0.599143 -88.885109 0.103288 -142.433472 7.334128 25.072201 0.771308 112.959562 
0.6508000000000001 0.867852 -127.064928 0.117160 -144.065894 9.715296 114.895815 0.782185 125.547290 
0.6756000000000000 1.073859 -108.209414 0.124257 -162.409464 9.835923 101.131432 0.548084 97.097317 
0.7004000000000000 0.779893 -128.435012 0.153999 -162.864924 2.238310 -115.989303 0.589748 138.634594 
0.7252000000000000 0.896491 -127.970777 0.167475 -166.138481 4.230935 -126.113416 0.669302 125.764233 
0.7500000000000000 0.780343 -139.819168 0.178500 -170.493796 4.455646 -21.767602 0.748374 106.490675 
0.7748000000000000 0.522474 -145.109697 0.186093 168.595618 5.591642 106.633351 0.505704 107.355159 
0.7996000000000000 0.983413 -153.337938 0.206401 165.126978 7.834897 177.617624 0.770818 115.666200 
0.8244000000000000 0.363804 -147.284404 0.239581 153.709130 8.885018 175.287348 0.857048 75.836095 
0.8492000000000000 0.881641 -134.009871 0.244609 149.910654 6.580304 146.900114 0.427710 75.276624 
0.8740000000000000 0.324948 179.077120 0.238347 142.359068 5.794050 -113.657300 0.565019 69.341091 
0.8988000000000000 0.827598 -173.399892 0.277923 137.573323 3.649866 124.109404 0.811980 85.669672 
0.9236000000000000 1.092455 164.288092 0.273136 124.632907 6.994941 -162.385911 0.413291 55.493218 
0.9484000000000000 0.776384 -166.057157 0.277066 118.300330 4.900978 -47.741767 0.623218 53.063328 
0.9732000000000000 0.943734 170.486813 0.302857 110.376980 6.736368 105.293906 0.850450 53.418770 
0.9980000000000000 0.777046 170.256899 0.316918 101.768175 4.872738 -83.388440 0.736242 42.671801 
1.0227999999999999 0.804185 176.558210 0.299738 93.817956 6.194204 84.299743 0.525590 37.682995 
1.0476000000000001 0.652166 165.166504 0.318112 88.337044 1.485657 -155.210065 0.416432 42.466598 
1.0724000000000000 0.535630 -178.436143 0.308762 81.093025 6.857695 4.328461 0.703702 6.014211 
1.0972000000000000 0.913735 172.691269 0.301889 65.864024 1.054831 -72.384911 0.358959 32.074057 
1.1220000000000001 0.610795 -179.576315 0.304691 63.210385 5.676263 168.216429 0.361819 9.716560 
1.1468000000000000 0.638096 134.671571 0.304438 56.037527 3.817692 160.207530 0.289610 16.630422 
1.1716000000000000 0.455913 -168.783335 0.292890 47.677312 3.265480 -116.026724 0.566585 17.526345 
1.1963999999999999 0.865151 101.057053 0.304526 45.121798 5.133119 176.875494 0.577724 6.259310 
1.2212000000000001 0.643675 134.995198 0.299117 36.637233 5.642443 172.299035 0.343596 21.164482 
1.2460000000000000 0.876882 130.319260 0.315868 26.745772 1.045755 88.816125 0.313813 50.245435 
1.2707999999999999 0.501450 153.951896 0.285373 17.899194 3.197426 63.493642 0.432731 -20.112905 
1.2956000000000001 0.441148 137.419433 0.300394 13.458834 1.879579 -147.707473 0.356325 -29.072002 
1.3204000000000000 0.793338 94.178107 0.293562 5.781410 1.394299 -84.712926 0.504023 -2.734726 
1.3452000000000000 0.617629 115.162101 0.284123 -2.610247 3.787285 -143.817843 0.341670 -2.075638 
1.3700000000000001 0.531841 144.134219 0.276468 -9.110888 1.120324 -106.284556 0.328520 40.312940 
1.3948000000000000 0.594002 146.783865 0.264462 -16.926274 1.142260 -119.178307 0.273341 13.191434 
1.4196000000000000 0.897146 122.834882 0.239315 -26.970229 1.200160 -3.808259 0.063753 16.719601 
1.4443999999999999 0.664389 71.535923 0.251782 -31.697125 1.684947 66.906606 0.383001 -19.883841 
1.4692000000000001 0.473644 136.652604 0.211093 -39.033999 1.464139 169.282631 0.513044 -2.290882 
1.4940000000000000 0.850950 116.758028 0.225922 -47.008891 2.139142 80.997797 0.257939 8.422506 
1.5187999999999999 0.680625 87.301546 0.226975 -48.234675 0.314732 -35.116266 0.172378 -64.987711 
1.5436000000000001 0.516080 91.382476 0.207133 -50.198760 3.291961 103.313269 0.453389 -24.322353 
1.5684000000000000 0.799522 70.896971 0.201208 -62.846156 0.990877 115.360700 0.156812 -42.003470 
1.5931999999999999 0.511923 75.104667 0.183495 -71.536426 0.713898 -134.629375 0.152092 -48.826645 
1.6180000000000001 0.655303 62.530399 0.176748 -77.723352 4.096102 125.053152 0.148331 -18.586851 
1.6428000000000000 0.676518 36.473933 0.156128 -83.197240 2.250506 3.436174 0.294102 -71.034854 
1.6676000000000000 0.452318 66.285177 0.140040 -81.547646 4.147321 89.257956 0.231232 -74.859616 
1.6923999999999999 0.930010 67.882278 0.140295 -90.526578 0.325726 156.728111 0.021107 -170.635994 
1.7172000000000001 0.558947 64.628376 0.130198 -99.110167 1.558085 179.171765 0.098525 -24.447444 
1.7420000000000000 0.554341 44.585141 0.120609 -96.366609 2.060881 -32.596251 0.059622 -155.199250 
1.7667999999999999 0.601280 97.459742 0.083054 -103.244136 5.662340 72.953394 0.274992 47.673916 
1.7916000000000001 0.789112 71.963757 0.081705 -108.403648 3.070108 -163.991394 0.155485 -174.531948 
1.8164000000000000 0.639106 41.848930 0.096197 -114.152122 0.095318 156.721319 0.028475 119.566603 
1.8411999999999999 1.055829 29.331591 0.077700 -106.617337 4.171569 -57.212090 0.327635 -30.776588 
1.8660000000000001 0.720009 52.016819 0.087065 -127.111400 1.236701 132.782992 0.089347 -4.360994 
1.8908000000000000 0.393987 26.596808 0.081661 -132.921496 0.475290 -168.920223 0.183832 14.723711 
1.9156000000000000 0.686097 21.309225 0.079956 -128.144943 2.399212 98.022503 0.082660 -1.980857 
1.9403999999999999 0.574151 35.081342 0.090595 -150.440651 3.002356 48.609832 0.309800 90.118525 
1.9652000000000001 0.645829 21.014573 0.069944 -143.341967 0.180835 -18.829394 0.103823 44.937478 
1.9900000000000000 0.248693 78.892071 0.079062 -175.880112 6.512170 144.880574 0.322121 -48.139375 
2.0148000000000001 0.663276 3.022483 0.056153 -147.777185 0.486604 -56.745959 0.075291 74.628014 
2.0396000000000001 0.571516 8.719412 0.059707 -162.121866 0.330126 53.855220 0.159196 24.720299 
2.0644000000000000 0.311534 32.244548 0.059109 169.079492 2.457435 88.961115 0.390169 11.440889 
2.0891999999999999 0.592500 -21.532887 0.057333 -177.523198 2.776808 -54.572999 0.411984 51.004137 
2.1139999999999999 0.613494 -3.330812 0.053028 -178.612919 0.086587 -132.128683 0.173140 22.190057 
2.1387999999999998 0.640391 -2.977485 0.060542 173.672960 0.948845 -95.662918 0.265142 20.291311 
2.1636000000000002 0.428249 8.777982 0.048598 164.119474 0.655141 178.943038 0.251410 5.904699 
2.1884000000000001 0.718478 -15.733456 0.060090 164.958463 2.966654 -22.744459 0.119417 -84.016955 
2.2132000000000001 0.805749 17.505746 0.049491 152.562947 1.375979 53.239389 0.045403 71.726414 
2.2380000000000000 0.983951 -1.811114 0.051656 171.358872 1.167287 118.993499 0.357023 10.432977 
2.2627999999999999 0.832548 -38.043157 0.016210 168.116894 3.257273 116.384522 0.291859 45.131318 
2.2875999999999999 0.635884 -59.791262 0.068152 112.108702 0.916888 -25.450311 0.162724 35.448681 
2.3123999999999998 0.514251 -18.410762 0.035113 135.457760 4.756444 109.770546 0.180796 -53.883030 
2.3372000000000002 0.670335 -72.106170 0.056249 105.960075 1.852262 -26.559144 0.192164 -13.037582 
2.3620000000000001 0.708134 -35.243464 0.048187 81.004850 1.060680 -133.908871 0.240536 -31.796559 
2.3868000000000000 0.482270 -50.961100 0.035002 87.673334 0.969705 -57.189148 0.189184 -70.552269 
2.4116000000000000 0.557254 -13.587998 0.043863 58.898661 4.254507 -139.402984 0.361239 -93.336900 
2.4363999999999999 0.579187 -72.059574 0.046468 66.977427 3.610071 160.902148 0.218128 -101.565398 
2.4611999999999998 0.552358 -69.971183 0.041556 45.455589 0.836487 -28.519202 0.273487 -73.828020 
2.4860000000000002 0.573242 -49.974549 0.032201 49.179316 1.468216 -50.546359 0.349813 -49.706114 
2.5108000000000001 0.679917 -35.940968 0.049208 41.071022 3.388980 37.430425 0.067004 3.155944 
2.5356000000000001 0.559669 -67.851661 0.045388 34.633018 0.283201 -117.263640 0.158800 -65.927374 
2.5604000000000000 0.419570 -69.765879 0.042244 -9.734938 4.682904 -135.257686 0.457371 -83.323327 
2.5851999999999999 0.438237 -60.041813 0.038161 23.138420 1.334934 -13.333521 0.097517 -101.549051 
2.6099999999999999 0.326839 -48.842517 0.062470 38.235244 4.080184 78.727048 0.299302 6.395682 
2.6347999999999998 0.473585 -84.577437 0.044636 23.605262 0.874494 121.199331 0.104447 -98.203789 
2.6596000000000002 0.208327 -120.522561 0.068064 8.469789 5.275019 -130.771568 0.175346 -64.837639 
2.6844000000000001 0.487660 -94.472130 0.054374 34.021184 0.180053 -29.722907 0.117084 -81.540955 
2.7092000000000001 0.199337 -59.129503 0.067361 17.425256 3.810265 -143.268135 0.395325 -110.759498 
2.7340000000000000 0.327126 -99.179370 0.077269 26.578966 1.506000 18.443024 0.178598 -132.662902 
2.7587999999999999 0.581747 -107.222056 0.093102 32.429422 0.921862 -29.063077 0.133829 -101.809594 
2.7835999999999999 0.062026 -151.698054 0.108742 34.925498 4.560181 -99.690262 0.289087 -101.243507 
2.8083999999999998 0.628424 -116.838802 0.114925 18.926912 1.496920 38.686806 0.202179 -95.005140 
2.8332000000000002 0.389314 -124.463647 0.139155 20.770017 0.270352 141.564427 0.110319 -130.787822 
2.8580000000000001 0.427887 -79.778858 0.180259 17.299910 2.629407 -126.069232 0.111935 105.673165 
2.8828000000000000 0.294252 128.200201 0.207676 4.595655 2.421503 -73.963357 0.166777 -149.453395 
2.9076000000000000 0.413456 -125.036710 0.209553 8.456080 1.238546 -144.561771 0.254324 -134.730190 
2.9323999999999999 0.326608 -149.601375 0.239119 -1.929006 0.135126 -176.387343 0.112109 167.771254 
2.9571999999999998 0.317901 -153.604672 0.275014 -7.575317 0.109929 -86.582168 0.126971 152.078378 
2.9820000000000002 0.076014 139.589729 0.300817 -15.815652 2.016025 -135.191355 0.228241 101.436888 
3.0068000000000001 0.463201 -102.170952 0.350499 -22.256269 4.384756 -103.766982 0.219371 -3.774838 
3.0316000000000001 0.222228 -156.342685 0.372486 -38.429978 4.831730 -82.164685 0.457853 61.928412 
3.0564000000000000 0.523289 -153.287007 0.402723 -43.265125 2.241693 45.946493 0.376523 139.982756 
3.0811999999999999 0.292779 138.420524 0.431557 -51.741050 1.656005 129.112307 0.282854 92.532248 
3.1059999999999999 0.135831 -167.009720 0.422297 -60.009119 0.548800 -65.347467 0.240751 85.135322 
3.1307999999999998 0.099528 -175.845853 0.455958 -66.416957 0.515268 81.831502 0.156115 55.784953 
3.1556000000000002 0.098078 150.521579 0.472525 -74.722003 0.130008 -101.886920 0.155907 58.415461 
3.1804000000000001 0.063770 153.538411 0.473927 -81.803636 0.155946 143.689055 0.161317 58.435830 
3.2052000000000000 0.052743 168.694535 0.477186 -88.420507 0.108033 73.629421 0.134298 49.790605 
3.2300000000000000 0.013001 174.057102 0.484376 -93.583315 0.169215 66.192521 0.151295 49.757524 
3.2547999999999999 0.004355 111.598720 0.497780 -99.784555 0.299305 -100.997726 0.182990 43.770201 
3.2795999999999998 0.049060 -39.563993 0.489527 -107.385565 0.563629 48.366971 0.215151 34.631162 
3.3043999999999998 0.172027 -166.093799 0.505222 -109.752761 1.343228 178.849189 0.140407 105.063974 
3.3292000000000002 0.213902 56.009536 0.531489 -114.640258 3.635399 29.091974 0.363775 45.506437 
3.3540000000000001 0.312492 -139.747374 0.499479 -118.068164 5.101698 -174.783229 0.528689 55.103627 
3.3788000000000000 0.512673 -58.248050 0.513785 -124.492399 1.791706 24.025900 0.141617 -86.287165 
3.4036000000000000 0.164071 36.388181 0.509777 -130.065559 2.761568 53.353488 0.347369 2.227937 
3.4283999999999999 0.098507 -97.930851 0.537598 -132.959598 0.196946 -115.487003 0.176508 8.350765 
3.4531999999999998 0.091563 -109.734910 0.534292 -138.158010 0.063278 102.879665 0.185025 6.038071 
3.4780000000000002 0.088833 -118.742022 0.543248 -140.749542 0.043516 -78.952084 0.198497 0.297309 
3.5028000000000001 0.047575 165.241710 0.561199 -144.709331 0.291684 92.098576 0.242181 -2.809675 
3.5276000000000001 0.330259 177.950624 0.608537 -148.236449 4.748637 48.351292 0.448117 51.917289 
3.5524000000000000 0.373455 -38.327100 0.591153 -156.313206 3.881981 141.878195 0.096689 -74.327541 
3.5771999999999999 0.086701 -136.388749 0.602370 -156.121809 0.069309 63.450458 0.201705 -13.806019 
3.6019999999999999 0.089027 -146.211199 0.630911 -161.022548 0.098661 -153.381450 0.208619 -18.214299 
3.6267999999999998 0.077559 -116.248722 0.640248 -165.815382 0.580595 69.370289 0.250296 -24.241593 
3.6516000000000002 0.548586 116.219385 0.689581 -171.976400 1.012092 134.788660 0.347295 24.512280 
3.6764000000000001 0.100826 150.143803 0.690406 -172.762838 0.549469 -19.253106 0.244468 -30.672437 
3.7012000000000000 0.073416 -177.042447 0.700326 -177.977226 0.100201 -120.810383 0.205829 -34.472323 
3.7260000000000000 0.031573 -179.203892 0.718418 177.945386 0.284761 -86.060933 0.217858 -30.332980 
3.7507999999999999 0.331225 122.859873 0.800852 176.018764 2.279061 63.141247 0.029402 132.131422 
3.7755999999999998 0.061297 167.472156 0.760865 168.142466 0.050029 -96.928313 0.204886 -52.330845 
3.8003999999999998 0.052739 172.723864 0.777760 164.128102 0.068348 -15.825039 0.197087 -57.003852 
3.8252000000000002 0.282031 138.654279 0.814259 160.389511 1.506857 148.873855 0.218306 45.572019 
3.8500000000000001 0.154361 127.780117 0.803176 154.679295 0.621745 120.996550 0.167894 -67.114546 
3.8748000000000000 0.038420 138.224852 0.806894 150.112934 0.061385 -169.074126 0.150090 -68.765944 
3.8996000000000000 0.200905 132.643840 0.821728 146.494064 1.709647 3.206949 0.269720 -19.494874 
3.9243999999999999 0.061583 134.375089 0.819865 142.951809 1.295294 -22.177918 0.111792 -53.567269 
3.9491999999999998 0.039097 71.694985 0.817471 139.002213 0.128535 164.296115 0.104527 -68.999268 
3.9740000000000002 0.302274 14.064300 0.826884 137.732858 3.444082 99.609887 0.357983 -6.212897 
3.9988000000000001 0.051747 62.422440 0.839999 133.885700 0.119062 74.185229 0.084922 -42.037717 
4.0236000000000001 0.045574 13.862932 0.864831 131.422153 0.218055 174.859106 0.105290 -29.075168 
4.0484000000000000 0.033493 18.380262 0.894935 129.188917 0.121713 -139.323911 0.112984 -21.595579 
4.0731999999999999 0.038588 4.004902 0.923036 126.306898 0.022660 119.207997 0.127672 -25.738174 
4.0979999999999999 0.077317 -7.475651 0.983475 123.416890 0.036363 21.573709 0.157673 -30.197776 
4.1227999999999998 0.076914 -8.783969 1.037973 119.255530 0.060536 6.872885 0.191093 -36.044524 
4.1475999999999997 0.071804 -34.929927 1.084113 115.547250 0.099945 -51.239442 0.177574 -37.196804 
4.1723999999999997 0.082222 -23.701222 1.147033 110.981037 0.102529 -45.624068 0.218166 -44.573528 
4.1971999999999996 0.093204 -9.776909 1.214234 105.782801 0.314046 -75.580919 0.277515 -39.792468 
4.2220000000000004 0.127036 102.606071 1.266150 101.049931 1.450811 -15.514306 0.318025 -57.963143 
4.2468000000000004 0.319672 25.462990 1.306986 94.880967 2.321007 143.544150 0.364782 -105.525652 
4.2716000000000003 0.291824 86.684737 1.302253 88.420789 5.001921 -56.234698 0.434647 -52.415216 
4.2964000000000002 0.173955 -113.243467 1.355921 84.363316 3.737970 -166.666270 0.365746 -99.654879 
4.3212000000000002 0.054997 -177.845514 1.396238 77.503248 1.218049 -133.745283 0.312707 -101.586279 
4.3460000000000001 0.103202 -63.271094 1.387436 72.006623 0.066497 134.391063 0.279600 -85.141328 
4.3708000000000000 0.115284 -68.722111 1.391332 67.504063 0.150798 -130.703808 0.296017 -94.345701 
4.3956000000000000 0.133981 -77.456335 1.382599 62.516423 0.238681 -40.558784 0.304676 -100.854096 
4.4203999999999999 0.349605 -19.247907 1.347010 58.668033 2.505587 -25.254172 0.138606 -53.127893 
4.4451999999999998 0.528860 -121.664032 1.365349 58.039951 2.296703 -1.516729 0.615454 -145.039634 
4.4699999999999998 0.158439 -110.403634 1.340175 51.562707 0.551056 -94.045828 0.332314 -116.360334 
4.4947999999999997 0.116464 -90.251477 1.348766 48.654552 0.060328 155.961731 0.299988 -127.381661 
4.5195999999999996 0.106455 -93.710552 1.345418 45.792174 0.158628 -18.906396 0.305164 -135.863012 
4.5444000000000004 0.424849 -54.612317 1.313958 44.190739 1.819453 51.483065 0.353150 -140.350376 
4.5692000000000004 0.586255 143.974490 1.511731 42.568574 5.175299 50.987292 0.475596 148.578798 
4.5940000000000003 0.137016 -107.208041 1.412532 37.870649 0.148073 -62.269089 0.275993 -157.035582 
4.6188000000000002 0.126952 -109.224403 1.470961 35.566977 0.086684 143.958169 0.294999 -163.626349 
4.6436000000000002 0.053093 48.215357 1.504623 32.634119 1.239599 -150.923474 0.444038 -155.508145 
4.6684000000000001 0.314090 11.693699 1.527412 28.807982 0.716424 -127.925286 0.399994 -116.752727 
4.6932000000000000 0.115677 -126.873675 1.594627 26.368901 0.073001 51.839579 0.292914 175.847614 
4.7180000000000000 0.116130 -136.275041 1.673117 23.566908 0.143388 169.425473 0.297871 167.710903 
4.7427999999999999 0.149914 -138.461859 1.830425 20.568121 3.197815 -79.335200 0.370815 39.684218 
4.7675999999999998 0.428421 -90.079586 1.763933 15.057594 2.161212 -106.721565 0.190892 -161.589668 
4.7923999999999998 0.108582 -153.865250 1.890308 12.975482 0.053028 -130.381335 0.268861 144.286171 
4.8171999999999997 0.071001 -148.120246 1.956761 8.444516 0.343274 -50.982619 0.276873 140.772574 
4.8419999999999996 0.442421 52.790217 2.153019 3.738444 3.119315 -123.802012 0.884956 102.286852 
4.8667999999999996 0.103702 -174.003352 2.116522 0.981495 0.063878 12.218548 0.295622 124.755191 
4.8916000000000004 0.096193 -168.843801 2.223720 -3.272820 0.090403 -25.353996 0.268392 116.304283 
4.9164000000000003 0.252440 -22.672218 2.317271 -7.515861 3.008411 158.575910 0.462986 114.741511 
4.9412000000000003 0.078138 175.084905 2.413004 -11.935232 0.072132 -70.029841 0.280190 103.218903 
4.9660000000000002 0.071169 168.241357 2.524292 -16.649882 0.148721 156.541277 0.314030 91.163800 
4.9908000000000001 1.039348 -68.065508 2.529817 -22.374876 5.515066 -55.978604 0.181441 126.935909 
