! 2 Port Network Data from SP2.SP block
! freq  dbS11  angS11  dbS21  angS21  dbS12  angS12  dbS22  angS22  
! C:\ANRITSUVNA\DATA\BROADBAND CAP\TRL_0402_AVX_70GHZ_102920\P2_GX02_0402_MAG ANG_70GHZ_103020.S2P
! CHANNEL.1
# GHz    S       DB      R    50.00
 0.5           55.7099314190098            22.47267      8.99188774986583E 03        0.153669      1.96550157960466E 02        0.1677634     55.1515519324831            22.74557 
 0.5434375     56.1678167001117            0.4602987     1.21071030121202E 02        0.2166686     0.013672503605314           0.2107724     55.7223592066648            1.227172 
 0.586875      53.0990608908015            30.31439      1.15774124728903E 02        0.2255079     1.23482806126672E 02        0.2260048     55.0923873581393            44.94099 
 0.6303125     51.9692873278598            30.26043      1.21920120603868E 02        0.2377828     1.34189146142163E 02        0.2333336     54.1569749614494            44.07904 
 0.67375       54.68319913145              19.61283      0.012153533347703           0.1693353     0.014491969277551           0.2007289     55.0762200253447            1.891403 
 0.7171875     53.437572065264             13.19012      0.012896371167068           0.0795921     1.59154663251926E 02        0.1724694     54.6603035162728            9.193465 
 0.760625      50.5120932561568            40.46025      1.61665049166198E 02        0.1261705     1.59361471930873E 02        0.1691027     50.9249485941169            47.41899 
 0.8040625     52.2355951385914            32.25066      1.54417896355256E 02        0.1858279     1.55940359897681E 02        0.1666105     53.4556216857235            47.43284 
 0.8475        52.793653983814             21.83489      1.62911236102403E 02        0.1686104     1.64753832319096E 02        0.160851      55.9892824762594            27.66471 
 0.8909375     51.1425845679538            16.18812      1.56792237779215E 02        0.1010627     1.69000938309204E 02        0.1771715     54.2553271673657            18.21446 
 0.934375      48.3626923179262            41.82491      1.67481022917995E 02        0.2048888     1.92077158925956E 02        0.2028285     49.8616908719508            51.87711 
 0.9778125     53.6414230022137            1.494539      1.83444041283991E 02        0.1778574     1.90310724186171E 02        0.2181512     54.4611366481923            19.2032 
 1.02125       51.089260950605             13.70519      1.93018381286495E 02        0.1749168     1.96230250115661E 02        0.2540503     56.0442309099338            21.02653 
 1.0646875     47.3590802876846            29.12267      2.07462276493383E 02        0.2025959     2.07576920940936E 02        0.2699602     49.8528122732744            44.82901 
 1.108125      50.0465292958896            30.16025      2.02616206885996E 02        0.1459381     0.021770570124652           0.2715282     50.0507056466573            42.18748 
 1.1515625     51.9680951941505            13.21069      1.98168660938266E 02        0.2319403     2.25418789670947E 02        0.2858371     54.582535290653             19.12828 
 1.195         48.2663054255375            6.758296      2.28929078504123E 02        0.2306604     2.27994813788944E 02        0.2622005     51.8332092747168            15.88943 
 1.2384375     46.2075051983762            36.83694      2.30834504293298E 02        0.2331259     2.46478978790168E 02        0.2791807     47.7180782056102            56.80561 
 1.281875      50.568888356896             13.75459      2.47042718597854E 02        0.188018      2.62287277295653E 02        0.2916442     54.3870396842947            23.28542 
 1.3253125     48.8664736870767            17.54515      2.63939115246923E 02        0.236055      2.68419430975155E 02        0.2853039     52.9128555508374            24.13352 
 1.36875       46.0503617981962            22.12836      2.98173947863186E 02        0.2492881     2.82287385480061E 02        0.3447041     49.0472720380253            39.22629 
 1.4121875     46.246724466297             32.34341      2.75009602067518E 02        0.2558147     2.83360349774125E 02        0.3438097     48.6048132830615            53.33821 
 1.455625      50.174870605051             5.383873      2.89031152470832E 02        0.2595427     2.88167785207556E 02        0.3527069     53.7099943889637            1.531372 
 1.4990625     47.1267506199261            0.600769      3.04310152466101E 02        0.3376663     3.12556292055884E 02        0.3394037     51.0975535885596            4.463424 
 1.5425        43.9871483571259            29.4652       0.031219979716469           0.3542501     3.25841237830541E 02        0.3814821     47.3618693388382            49.78394 
 1.5859375     46.3882754860502            26.12576      3.35539414875016E 02        0.3431715     3.30665111711162E 02        0.375839      50.0045735583987            44.68555 
 1.629375      47.9590694401932            2.904561      3.51465905276554E 02        0.3145598     3.64135210406542E 02        0.3741465     51.9750366738569            5.815408 
 1.6728125     45.0551160926443            11.65007      3.45701089515414E 02        0.365461      0.036418414746051           0.4227324     49.4740158658962            33.01131 
 1.71625       43.7950161943888            27.29925      3.86085998328708E 02        0.4003624     3.87568801332668E 02        0.412764      47.016218735952             53.58921 
 1.7596875     46.2392587027123            15.26516      3.79024451493246E 02        0.4168974     4.00430514538936E 02        0.4289971     49.7492123024373            32.39257 
 1.803125      45.8046143575169            7.048262      4.06698727830999E 02        0.3135778     4.16785083913944E 02        0.4434539     49.8032526990345            20.40907 
 1.8465625     43.3037543532325            23.02081      4.30551282525046E 02        0.3524159     4.24080709150751E 02        0.4785188     47.1510004487236            48.18377 
 1.89          43.4403879352962            23.98253      0.043183227739579           0.4325676     4.54481720496295E 02        0.5216655     47.1760702046507            46.4059 
 1.9334375     44.3637842294276            11.59856      4.59829061167976E 02        0.3710211     4.73777162877195E 02        0.5483084     49.0625854403748            25.91327 
 1.976875      43.3439479834923            21.57567      4.81324952563326E 02        0.4446956     5.03632863122015E 02        0.5370859     47.4106560925386            36.94322 
 2.0203125     42.3124576241748            25.53296      5.00629732448488E 02        0.4022511     5.07289381920017E 02        0.5319723     46.3051819389063            51.73454 
 2.06375       43.5045838758363            15.15266      5.24402141410495E 02        0.4237878     5.05752655605863E 02        0.5155385     46.7372918142488            33.09303 
 2.1071875     42.2565300605977            20.09291      5.32385900005259E 02        0.3676665     5.30856074487008E 02        0.5164364     45.9544195206387            33.59195 
 2.150625      42.2820447520546            28.30344      5.65267030059986E 02        0.403713      0.056396445554462           0.533314      46.6059619583467            48.10962 
 2.1940625     42.8424705727574            17.32871      0.059075078901281           0.4500999     0.05953464403788            0.5812682     46.158383781147             21.67563 
 2.2375        41.0935102848536            12.10856      6.10679859483898E 02        0.35172       6.31569156740778E 02        0.5294964     42.9325574955319            24.81909 
 2.2809375     39.8891659571576            29.35653      6.40374086740217E 02        0.3150589     6.49082599800669E 02        0.5198447     43.890145953662             52.28453 
 2.324375      43.5067959674815            20.64543      6.91054472122394E 02        0.3243211     6.72747263046449E 02        0.5173058     48.6900140167154            31.12028 
 2.3678125     39.6794844502325            8.454425      6.88270509265775E 02        0.3502347     0.070370024902659           0.5966209     39.9951719874244            11.83302 
 2.41125       37.35528023104              14.71125      7.54341563847309E 02        0.4509261     7.31026094865169E 02        0.6385834     38.9365173708046            36.13291 
 2.4546875     38.9653606577965            40.03567      7.87123141145198E 02        0.4297655     7.72626820242848E 02        0.6029857     43.5104358956273            60.95972 
 2.498125      42.402390851653             3.232029      7.90110788451469E 02        0.2994389     7.99886430088523E 02        0.5307609     44.8593652634034            8.925147 
 2.5415625     38.1293320689726            15.08835      8.48005306141792E 02        0.7488247     8.27815765375773E 02        0.6896937     41.4078822488009            30.12984 
 2.585         38.6508977418106            19.45456      8.73070849261525E 02        0.7016042     8.80804740746767E 02        0.6781057     41.5428968757619            27.15096 
 2.6284375     37.4872522307957            15.82211      9.19100434218322E 02        0.7310892     9.11628815475952E 02        0.7321244     40.7479921451766            34.75321 
 2.671875      36.8564454667967            17.99004      9.52102938141892E 02        0.7194676     9.44960031081946E 02        0.6997949     39.8209825611526            36.36648 
 2.7153125     37.0638193279206            13.79836      9.77524815344492E 02        0.7572004     9.88248541253162E 02        0.7211174     40.4226355680741            24.0236 
 2.75875       37.0417887258754            17.81716      0.10149911095927            0.7246243     0.103818839830015           0.7018055     40.2869320469323            29.5022 
 2.8021875     36.3170611159523            14.2712       0.107130857393015           0.8296121     0.106321783941134           0.7664666     39.1793506759272            29.85625 
 2.845625      35.7112142171259            13.21651      0.111946215088155           0.8465115     0.111855544503127           0.7763942     38.6650084967049            26.68993 
 2.8890625     35.8952250250795            11.9802       0.114540459626324           0.8218485     0.115662618256794           0.8069261     39.2779745114109            21.37757 
 2.9325        35.4476075731783            14.38956      0.120148548211427           0.8344595     0.120977849927203           0.8236657     38.4531943199277            26.78306 
 2.9759375     35.2072495698881            10.57751      0.123996067319762           0.8755422     0.125267154026426           0.8292679     38.1729929537284            22.19362 
 3.019375      34.7386179175436            10.28956      0.128935514056986           0.8803349     0.127687996966293           0.8337666     37.8840689123795            22.28093 
 3.0628125     34.9301867970476            7.502836      0.131023586103818           0.8295126     0.131330587388703           0.8355494     38.0812988493447            14.96845 
 3.10625       34.6286137202742            11.30892      0.135343646182386           0.8821042     0.135933976526607           0.9089444     37.4398121595129            20.36494 
 3.1496875     34.1870136942557            9.248982      0.138132483971494           0.8908049     0.137673752134491           0.8440116     36.9427471982601            18.67123 
 3.193125      33.9965542751534            9.485516      0.143891632757405           0.9263767     0.141603407963004           0.9085683     36.8727125939525            17.48708 
 3.2365625     34.1948368040507            6.983295      0.145456185957965           0.8774313     0.147520052810797           0.8517687     37.4497275892733            9.924457 
 3.28          33.4119773197049            9.840484      0.153711470821439           0.9074815     0.153133351487143           0.8890401     36.4476368614124            15.94026 
 3.3234375     32.9545547393807            5.063569      0.157029797818133           0.9075854     0.154648744567122           0.8593915     35.839572574719             11.68939 
 3.366875      32.9829653365684            7.701252      0.164613002136756           0.906203      0.163736353033051           0.9289345     36.028084267299             9.812428 
 3.4103125     32.807911413488             4.287996      0.168836408676651           0.8705193     0.166340514402682           0.9004309     36.6076985107156            6.135592 
 3.45375       32.3259972592964            4.836574      0.171777276827276           0.9323918     0.172029991232379           0.9149095     35.6303717606633            8.546718 
 3.4971875     32.1501059142105            0.445885      0.17587791804282            0.9074993     0.174969171342475           0.8790686     35.4186559585827            5.003685 
 3.540625      32.3473202578866            3.291343      0.178876577575437           0.9175119     0.179603728800036           0.9159944     35.4020033888455            3.794612 
 3.5840625     32.0254578963737            1.856153      0.183104493637886           0.905892      0.182464898516879           0.8986543     35.7948552406078            2.528487 
 3.6275        31.5122637150215            0.2633713     0.1847792832843             0.888145      0.186610957945641           0.9137695     34.7170225555727            4.045543 
 3.6709375     31.607168885246             2.667731      0.190041491011951           0.8754722     0.190036823982159           0.841998      34.7241172557889            1.67849 
 3.714375      31.6071523602128            0.6095875     0.194418918084011           0.8855997     0.195447977592931           0.8716305     34.7791890337788            1.720123 
 3.7578125     31.1897525762768            1.377975      0.199514994595856           0.8122554     0.198815977257532           0.7990282     34.9239191977424            3.139917 
 3.80125       30.757909492909             4.365318      0.203307669226334           0.8400626     0.200658320798154           0.8402802     33.9374185697243            1.606554 
 3.8446875     31.0648216499161            6.354156      0.202992707132438           0.8232774     0.203511748604531           0.7646881     34.3064323943184            9.265757 
 3.888125      30.8946648245337            2.691216      0.205977713148661           0.7432492     0.206414881018928           0.7456471     34.6894178894162            6.141796 
 3.9315625     30.5346002479961            6.998315      0.210362408191502           0.7765635     0.208486050760112           0.7484959     34.1263197491355            7.788912 
 3.975         30.4176970189523            8.521082      0.211621314513489           0.7618874     0.211119769503208           0.7302713     33.5481846437692            8.588506 
 4.0184375     30.6539986199579            8.519372      0.218427575054031           0.7914491     0.210649513409667           0.7367415     34.0582250043951            13.24027 
 4.061875      30.3381779010666            5.992053      0.216078427825227           0.764558      0.212589187450716           0.7177447     34.1730803888154            10.05345 
 4.1053125     29.98216097465              10.48594      0.2187561653643             0.7224811     0.215871588422108           0.6951393     33.4483425918426            11.83992 
 4.14875       30.0610944627813            11.21727      0.219098652271123           0.6712529     0.219970862140167           0.66848       33.190364165551             14.06911 
 4.1921875     30.0344590043978            9.949646      0.221724923759663           0.6700631     0.221806986210873           0.6062067     33.8406710594345            16.8798 
 4.235625      29.7010639710504            10.40852      0.222502928251173           0.6189548     0.222510639398802           0.6463904     33.5760997182364            13.99522 
 4.2790625     29.5930049588467            14.75161      0.225048461218957           0.6060257     0.223705749505877           0.6345527     32.7974208271506            17.80404 
 4.3225        29.7328215478574            14.37627      0.22572162291673            0.6114847     0.223885163802647           0.6035756     32.9494615639014            19.73324 
 4.3659375     29.5083002121523            13.07193      0.224906854023336           0.583136      0.225152016469769           0.5915313     33.4900438631405            20.51019 
 4.409375      29.276475063972             15.13899      0.226759392057776           0.5114945     0.22696848492581            0.5623407     32.9846421795232            18.83509 
 4.4528125     29.3601400768929            18.78815      0.229701705248588           0.5467478     0.228757153453303           0.5176453     32.2880639754293            23.85301 
 4.49625       29.4262697078585            16.32632      0.229858725493627           0.4774768     0.224351542729054           0.4818386     32.9101019093434            23.9147 
 4.5396875     29.0423777409265            16.96707      0.227200819694191           0.4936298     0.229166476857984           0.4843402     33.0182238718726            23.29484 
 4.583125      29.161214808172             19.67483      0.227229177396965           0.4490748     0.227237344417143           0.4529048     32.4868959543792            24.46183 
 4.6265625     29.2698159418825            20.97471      0.228024002012079           0.4443551     0.225354501847443           0.4127827     32.1695410279268            28.42282 
 4.67          29.1543518765135            18.92769      0.227055807906556           0.3698891     0.225652195038992           0.3670769     32.7150341850064            27.91084 
 4.7134375     28.8447253437892            19.73514      0.22633678495046            0.4037094     0.228262102902299           0.3314436     32.6197260721049            27.95946 
 4.756875      28.9955381489027            22.65468      0.2282032034968             0.3788675     0.227358929255278           0.3574688     32.1583599963319            29.72711 
 4.8003125     29.0435906002594            23.08912      0.224877086548439           0.3781559     0.22552330586107            0.3773975     32.1471370671471            32.74345 
 4.84375       28.8743239685092            21.75885      0.224604562606069           0.4010936     0.222857334014278           0.3411444     32.7384381985599            31.73671 
 4.8871875     28.6275747778178            23.11749      0.225628761173162           0.3827909     0.224507793774146           0.3453568     32.2424693419773            31.86955 
 4.930625      29.0413003324972            25.25618      0.224721491485394           0.3293003     0.224616672572318           0.2874869     31.9879866334654            34.25943 
 4.9740625     28.9531854096295            24.16053      0.222562409856269           0.3257903     0.223727950432559           0.2874427     32.1666677533295            36.12223 
 5.0175        28.5713230631602            24.38237      0.222371513549275           0.2632629     0.224527431060135           0.2691872     32.3934266739663            32.06356 
 5.0609375     28.5864097794916            26.35058      0.224492307247486           0.2550044     0.22354351635133            0.2588005     31.7724619095653            34.0939 
 5.104375      28.8281827364351            26.91787      0.224361388995535           0.230401      0.222983416674632           0.2392971     31.8883878468213            36.75402 
 5.1478125     28.5830912061102            26.49333      0.225866098536413           0.2468139     0.223890874052948           0.2568845     31.9449190271205            36.36283 
 5.19125       28.529212641873             26.96228      0.221175642903849           0.2104662     0.219897836236881           0.1881849     32.0946256733888            35.57944 
