! MMA017AA S Parameters
! Please see datasheet for reference plane information								
! Wafer 16134 018 Device 1
! Vd=3.3V;Id=78.89mA;Temp=25C								
# GHZ S DB R 50								
! Freq	dBS11	angS11	dBS21	angS21	dBS12	angS12	dBS22	angS22
0.010	 8.088	 0.530	6.924	179.837	 41.910	148.363	 13.552	2.937
0.047	 8.140	 0.895	6.884	 177.410	 55.651	 53.638	 12.694	 3.171
0.085	 8.110	 1.597	6.997	 175.579	 54.367	 103.242	 12.573	 5.265
0.122	 8.187	 2.583	7.056	 173.764	 65.193	 149.780	 12.846	 5.844
0.160	 8.162	 3.024	7.197	 172.137	 64.517	75.506	 13.062	 9.366
0.197	 8.161	 3.771	7.352	 170.413	 61.513	50.597	 12.991	 11.938
0.235	 8.209	 4.618	7.535	 168.895	 58.765	94.373	 13.024	 12.317
0.272	 8.180	 5.230	7.775	 167.554	 71.703	163.789	 13.332	 14.094
0.310	 8.200	 5.794	7.989	 166.669	 56.703	88.027	 13.355	 16.903
0.347	 8.233	 6.762	8.228	 165.681	 68.775	102.355	 13.227	 19.137
0.385	 8.252	 7.496	8.477	 165.210	 56.248	85.148	 13.193	 19.583
0.422	 8.281	 8.034	8.716	 164.660	 55.672	134.037	 13.481	 20.445
0.460	 8.255	 8.841	8.915	 164.319	 52.351	37.990	 13.515	 22.966
0.497	 8.349	 9.393	9.136	 163.981	 69.218	 30.899	 13.644	 25.210
0.535	 8.354	 10.195	9.381	 163.931	 55.166	67.886	 13.583	 26.343
0.572	 8.367	 10.715	9.611	 163.957	 54.296	74.879	 13.648	 27.477
0.610	 8.405	 11.505	9.819	 164.021	 60.022	85.058	 13.751	 29.278
0.647	 8.416	 12.165	10.028	 164.250	 60.556	42.587	 13.761	 30.813
0.685	 8.472	 12.747	10.225	 164.532	 60.341	79.673	 13.798	 32.170
0.722	 8.506	 13.723	10.425	 164.977	 56.682	58.336	 13.881	 33.434
0.760	 8.518	 14.047	10.610	 165.356	 52.656	69.243	 13.904	 34.820
0.797	 8.587	 14.673	10.765	 165.840	 53.342	104.326	 13.997	 36.420
0.835	 8.604	 15.343	10.950	 166.385	 54.157	71.482	 13.989	 38.035
0.872	 8.662	 15.825	11.092	 166.998	 51.491	88.840	 14.029	 39.385
0.910	 8.675	 16.610	11.255	 167.607	 52.060	89.736	 14.152	 40.608
0.947	 8.727	 17.192	11.397	 168.231	 53.904	81.798	 14.127	 42.021
0.985	 8.757	 17.762	11.531	 168.913	 50.361	89.223	 14.158	 43.159
1.022	 8.816	 18.281	11.669	 169.608	 50.540	82.402	 14.190	 44.445
1.060	 8.844	 18.775	11.788	 170.317	 49.971	84.691	 14.262	 45.796
1.097	 8.900	 19.255	11.902	 171.081	 49.497	89.530	 14.355	 46.979
1.135	 8.959	 19.869	12.009	 171.773	 49.535	73.293	 14.347	 48.249
1.172	 9.006	 20.391	12.109	 172.511	 51.867	67.235	 14.400	 49.541
1.210	 9.024	 20.777	12.227	 173.229	 49.275	78.228	 14.446	 51.006
1.247	 9.070	 21.498	12.306	 174.059	 51.632	85.110	 14.451	 52.149
1.285	 9.111	 22.022	12.401	 174.871	 50.394	77.275	 14.509	 53.122
1.322	 9.168	 22.412	12.490	 175.655	 49.551	75.962	 14.542	 54.157
1.360	 9.213	 22.676	12.567	 176.446	 48.318	77.564	 14.567	 55.338
1.397	 9.244	 23.320	12.646	 177.161	 48.450	70.206	 14.699	 56.770
1.435	 9.305	 23.764	12.718	 177.951	 48.277	77.246	 14.656	 57.806
1.472	 9.360	 24.187	12.786	 178.797	 48.573	87.681	 14.665	 58.821
1.510	 9.423	 24.553	12.843	 179.577	 48.503	96.617	 14.732	 60.017
1.547	 9.448	 25.094	12.903	179.640	 50.208	74.025	 14.731	 61.074
1.584	 9.502	 25.484	12.967	178.821	 48.792	79.877	 14.806	 61.850
1.622	 9.551	 25.886	13.011	178.130	 48.345	89.593	 14.817	 63.312
1.659	 9.559	 26.308	13.068	177.311	 47.535	79.174	 14.797	 63.908
1.697	 9.631	 26.705	13.112	176.569	 46.798	81.694	 14.852	 64.882
1.734	 9.654	 27.204	13.163	175.748	 49.970	75.629	 14.927	 66.027
1.772	 9.699	 27.486	13.209	174.996	 46.458	72.628	 14.903	 66.905
1.809	 9.754	 27.892	13.249	174.252	 48.737	74.718	 14.934	 67.958
1.847	 9.791	 28.356	13.281	173.411	 48.202	76.214	 14.899	 68.844
1.884	 9.813	 28.557	13.332	172.698	 46.460	63.476	 14.921	 70.019
1.922	 9.887	 28.902	13.359	171.939	 45.767	73.493	 14.941	 70.551
1.959	 9.921	 29.443	13.391	171.182	 46.347	84.149	 15.027	 71.154
1.997	 10.011	 29.526	13.431	170.457	 46.282	85.825	 14.968	 72.775
2.034	 10.047	 30.013	13.457	169.660	 47.470	83.095	 15.014	 73.587
2.072	 10.098	 30.352	13.473	168.894	 45.080	70.854	 15.023	 74.581
2.109	 10.144	 30.492	13.495	168.273	 45.940	78.007	 15.071	 75.391
2.147	 10.173	 31.230	13.517	167.455	 46.579	68.143	 15.049	 76.504
2.184	 10.208	 31.182	13.552	166.860	 44.661	64.739	 15.012	 77.301
2.222	 10.227	 31.448	13.569	166.100	 46.360	77.179	 15.072	 77.926
2.259	 10.266	 31.779	13.590	165.360	 46.802	68.977	 15.047	 78.684
2.297	 10.327	 32.211	13.614	164.538	 45.416	69.616	 15.019	 80.021
2.334	 10.336	 32.412	13.628	163.865	 45.991	81.178	 15.152	 80.439
2.372	 10.393	 32.510	13.641	163.242	 45.118	79.128	 15.081	 81.294
2.409	 10.393	 32.836	13.663	162.547	 45.688	71.010	 15.122	 82.047
2.447	 10.465	 33.225	13.680	161.874	 45.171	74.237	 15.093	 83.363
2.484	 10.501	 33.381	13.699	161.133	 48.139	75.261	 15.138	 83.257
2.522	 10.559	 33.792	13.706	160.365	 47.745	68.782	 15.068	 84.750
2.559	 10.605	 34.043	13.713	159.709	 43.603	69.620	 15.124	 85.066
2.597	 10.633	 34.294	13.726	159.066	 43.825	71.873	 15.103	 86.284
2.634	 10.646	 34.580	13.737	158.425	 44.861	69.286	 15.080	 87.055
2.672	 10.700	 34.506	13.744	157.737	 43.992	70.096	 15.079	 87.898
2.709	 10.740	 34.821	13.746	157.071	 44.255	71.357	 15.077	 88.677
2.747	 10.765	 35.209	13.763	156.456	 44.373	79.818	 15.055	 88.806
2.784	 10.832	 35.167	13.765	155.826	 42.836	83.378	 15.033	 89.967
2.822	 10.826	 35.739	13.767	155.080	 43.667	76.759	 15.046	 90.764
2.859	 10.859	 35.832	13.779	154.421	 44.557	76.699	 15.040	 91.204
2.897	 10.853	 36.062	13.772	153.812	 44.485	71.053	 15.050	 92.456
2.934	 10.901	 36.214	13.785	153.116	 43.441	68.027	 15.072	 93.106
2.972	 10.924	 36.596	13.794	152.486	 43.260	73.461	 15.041	 93.735
3.009	 10.982	 36.850	13.783	151.904	 43.836	68.913	 14.956	 94.202
3.046	 11.020	 36.761	13.798	151.289	 43.263	69.431	 15.008	 95.008
3.084	 11.027	 37.029	13.801	150.601	 43.016	77.437	 14.988	 96.114
3.121	 11.054	 37.268	13.799	149.965	 43.395	68.192	 15.016	 96.612
3.159	 11.076	 37.333	13.804	149.391	 41.794	69.625	 14.953	 97.090
3.196	 11.122	 37.726	13.805	148.776	 42.258	73.788	 14.967	 97.809
3.234	 11.149	 37.878	13.814	148.076	 42.693	71.687	 14.992	 98.344
3.271	 11.172	 38.385	13.793	147.489	 42.576	71.592	 14.955	 99.541
3.309	 11.224	 38.188	13.798	146.882	 43.640	74.533	 14.973	 99.911
3.346	 11.239	 38.664	13.793	146.194	 42.131	73.601	 14.899	 100.711
3.384	 11.235	 38.690	13.791	145.608	 41.776	70.399	 14.971	 101.162
3.421	 11.273	 38.887	13.798	145.010	 42.405	69.676	 14.930	 102.093
3.459	 11.317	 38.878	13.796	144.426	 42.950	69.780	 14.865	 102.506
3.496	 11.320	 39.176	13.795	143.847	 42.459	74.152	 14.914	 103.037
3.534	 11.336	 39.202	13.785	143.225	 41.299	67.067	 14.917	 103.615
3.571	 11.340	 39.530	13.783	142.662	 40.776	67.497	 14.835	 104.949
3.609	 11.389	 39.927	13.774	141.988	 41.578	73.632	 14.828	 105.006
3.646	 11.363	 39.896	13.781	141.452	 42.126	68.599	 14.876	 105.544
3.684	 11.466	 40.397	13.784	140.930	 42.454	60.873	 14.800	 106.284
3.721	 11.438	 40.354	13.780	140.316	 41.987	72.114	 14.841	 106.608
3.759	 11.439	 40.500	13.757	139.717	 41.860	66.213	 14.833	 107.521
3.796	 11.448	 40.658	13.759	139.157	 40.879	63.025	 14.756	 108.212
3.834	 11.465	 40.999	13.764	138.542	 40.146	70.647	 14.826	 108.754
3.871	 11.563	 41.201	13.756	137.920	 40.926	66.982	 14.752	 109.363
3.909	 11.519	 41.406	13.734	137.416	 42.081	67.019	 14.783	 110.072
3.946	 11.530	 41.681	13.738	136.941	 40.115	61.355	 14.634	 110.739
3.984	 11.570	 41.611	13.746	136.272	 41.534	68.287	 14.694	 111.567
4.021	 11.568	 41.781	13.729	135.682	 40.920	67.017	 14.638	 111.922
4.059	 11.594	 42.426	13.729	135.255	 42.189	52.877	 14.632	 112.581
4.096	 11.605	 41.967	13.737	134.598	 41.969	65.468	 14.597	 112.546
4.134	 11.573	 42.269	13.717	134.019	 40.953	68.802	 14.642	 113.874
4.171	 11.614	 42.229	13.693	133.448	 40.124	60.630	 14.628	 114.142
4.209	 11.673	 42.594	13.694	132.933	 40.849	59.629	 14.502	 115.081
4.246	 11.672	 42.925	13.693	132.271	 39.992	63.018	 14.573	 115.491
4.284	 11.659	 43.155	13.685	131.766	 40.270	66.022	 14.423	 115.821
4.321	 11.708	 42.928	13.675	131.292	 41.061	67.614	 14.503	 115.977
4.359	 11.709	 43.507	13.673	130.662	 39.352	67.674	 14.443	 116.755
4.396	 11.735	 43.520	13.657	130.080	 39.855	61.202	 14.501	 117.504
4.434	 11.739	 43.546	13.652	129.564	 40.407	70.770	 14.466	 118.186
4.471	 11.732	 43.639	13.650	129.122	 39.584	64.708	 14.458	 118.843
4.509	 11.754	 44.095	13.628	128.489	 39.373	63.312	 14.413	 119.580
4.546	 11.796	 44.136	13.616	127.869	 39.603	65.295	 14.323	 119.651
4.583	 11.774	 44.287	13.615	127.462	 39.752	61.071	 14.332	 120.780
4.621	 11.773	 44.556	13.612	126.805	 39.377	63.853	 14.364	 121.161
4.658	 11.790	 44.783	13.594	126.280	 39.831	66.002	 14.314	 121.648
4.696	 11.768	 44.758	13.591	125.796	 39.457	64.591	 14.240	 122.148
4.733	 11.826	 44.901	13.578	125.204	 40.089	60.277	 14.257	 122.707
4.771	 11.819	 45.197	13.551	124.660	 39.290	60.372	 14.201	 122.806
4.808	 11.751	 45.605	13.557	124.262	 39.775	50.492	 14.232	 123.895
4.846	 11.833	 45.450	13.546	123.678	 39.178	66.843	 14.243	 124.163
4.883	 11.861	 45.903	13.532	123.099	 38.021	60.647	 14.120	 124.534
4.921	 11.858	 45.871	13.518	122.599	 38.632	60.571	 14.102	 125.230
4.958	 11.829	 46.020	13.522	122.149	 38.793	64.031	 14.150	 125.458
4.996	 11.843	 46.210	13.504	121.469	 38.765	67.171	 14.119	 126.422
5.033	 11.865	 46.345	13.497	121.030	 38.399	61.678	 14.087	 126.983
5.071	 11.869	 46.637	13.478	120.539	 38.481	59.666	 14.102	 127.728
5.108	 11.878	 46.588	13.472	120.036	 38.909	64.995	 14.055	 127.731
5.146	 11.884	 47.073	13.456	119.456	 38.176	57.790	 14.057	 128.965
5.183	 11.866	 47.157	13.445	118.931	 38.565	59.375	 14.033	 128.855
5.221	 11.897	 47.536	13.434	118.374	 38.174	59.091	 14.031	 129.641
5.258	 11.869	 47.389	13.423	117.952	 38.576	62.224	 13.977	 130.027
5.296	 11.914	 47.332	13.419	117.452	 37.936	57.528	 13.958	 130.620
5.333	 11.930	 47.868	13.409	116.946	 38.301	57.855	 13.904	 130.935
5.371	 11.926	 47.965	13.396	116.433	 38.454	55.570	 13.894	 131.678
5.408	 11.919	 48.237	13.379	115.860	 38.074	60.466	 13.860	 131.816
5.446	 11.926	 48.286	13.371	115.410	 38.162	59.764	 13.937	 132.687
5.483	 11.927	 48.797	13.370	114.921	 37.939	57.958	 13.864	 132.978
5.521	 11.917	 48.031	13.345	114.464	 38.840	59.795	 13.878	 133.531
5.558	 11.913	 48.454	13.345	113.870	 38.281	52.500	 13.947	 133.551
5.596	 11.962	 48.738	13.329	113.505	 38.074	54.687	 13.825	 134.687
5.633	 11.921	 49.063	13.318	112.958	 37.860	57.208	 13.818	 134.953
5.671	 11.943	 49.499	13.296	112.376	 37.268	61.435	 13.751	 135.262
5.708	 11.992	 49.420	13.292	112.010	 38.065	62.499	 13.777	 135.982
5.746	 11.984	 49.623	13.283	111.496	 38.121	52.256	 13.786	 136.041
5.783	 11.940	 50.041	13.266	110.939	 37.088	58.832	 13.683	 136.647
5.821	 11.942	 49.964	13.253	110.464	 37.257	63.446	 13.692	 137.720
5.858	 11.949	 50.137	13.243	109.951	 36.700	61.018	 13.655	 138.248
5.896	 11.986	 50.168	13.240	109.398	 38.106	57.799	 13.602	 138.678
5.933	 11.954	 50.487	13.225	108.972	 37.027	53.064	 13.656	 138.725
5.971	 11.947	 50.799	13.201	108.447	 36.974	58.932	 13.612	 139.382
6.008	 11.902	 50.757	13.206	108.002	 36.952	55.054	 13.632	 139.704
6.045	 11.974	 51.054	13.185	107.461	 36.572	52.988	 13.602	 140.352
6.083	 11.934	 51.233	13.170	107.013	 37.132	55.476	 13.525	 141.115
6.120	 11.935	 51.321	13.166	106.565	 37.631	60.366	 13.523	 141.565
6.158	 11.935	 51.348	13.137	105.961	 36.928	55.202	 13.552	 141.707
6.195	 11.923	 51.910	13.128	105.576	 36.682	54.167	 13.394	 141.914
6.233	 11.918	 51.774	13.123	105.138	 36.486	57.541	 13.509	 142.514
6.270	 11.900	 52.066	13.111	104.566	 37.067	56.758	 13.433	 143.278
6.308	 11.942	 52.346	13.085	104.117	 36.432	57.038	 13.402	 143.816
6.345	 11.911	 52.263	13.081	103.747	 36.230	57.114	 13.431	 143.883
6.383	 11.922	 52.993	13.079	103.127	 36.366	53.669	 13.339	 144.621
6.420	 11.934	 52.630	13.057	102.673	 36.087	52.883	 13.363	 144.629
6.458	 11.921	 52.908	13.048	102.211	 36.345	54.370	 13.347	 145.471
6.495	 11.877	 52.856	13.035	101.826	 36.895	54.802	 13.295	 145.464
6.533	 11.927	 53.337	13.033	101.204	 36.088	51.894	 13.249	 146.010
6.570	 11.946	 53.684	13.007	100.787	 36.320	57.312	 13.330	 146.809
6.608	 11.874	 53.980	13.004	100.319	 36.338	54.047	 13.191	 147.249
6.645	 11.894	 53.932	12.971	99.872	 36.746	51.892	 13.253	 147.850
6.683	 11.889	 54.234	12.967	99.413	 36.644	58.166	 13.269	 148.121
6.720	 11.858	 54.504	12.953	98.900	 36.197	50.699	 13.210	 148.342
6.758	 11.907	 54.399	12.940	98.430	 35.926	49.930	 13.171	 148.784
6.795	 11.890	 54.758	12.925	97.966	 36.251	58.015	 13.131	 149.558
6.833	 11.851	 54.674	12.912	97.450	 35.749	53.499	 13.134	 149.882
6.870	 11.859	 54.941	12.903	97.068	 36.349	51.673	 13.185	 150.077
6.908	 11.867	 55.346	12.897	96.600	 35.863	54.779	 13.152	 150.632
6.945	 11.848	 55.395	12.876	96.146	 35.684	51.644	 13.112	 151.052
6.983	 11.869	 55.452	12.863	95.690	 35.744	55.003	 13.022	 151.220
7.020	 11.841	 55.943	12.861	95.145	 35.828	50.640	 13.046	 151.998
7.058	 11.850	 55.901	12.837	94.713	 35.735	51.585	 13.045	 152.126
7.095	 11.873	 56.340	12.818	94.294	 35.436	52.380	 12.964	 152.621
7.133	 11.791	 56.427	12.826	93.867	 35.037	52.757	 12.977	 153.164
7.170	 11.825	 56.643	12.800	93.294	 35.405	54.221	 12.944	 153.781
7.208	 11.812	 56.570	12.785	92.870	 34.850	48.409	 12.933	 154.398
7.245	 11.796	 57.041	12.772	92.476	 35.609	50.410	 12.944	 154.903
7.283	 11.785	 57.242	12.766	91.979	 35.499	48.943	 12.942	 155.042
7.320	 11.781	 57.493	12.744	91.521	 35.431	50.623	 12.897	 155.664
7.358	 11.816	 57.509	12.736	91.139	 35.196	51.127	 12.884	 155.515
7.395	 11.768	 57.727	12.728	90.675	 35.240	51.085	 12.810	 156.288
7.433	 11.735	 57.940	12.701	90.104	 35.263	48.378	 12.813	 156.759
7.470	 11.750	 57.986	12.697	89.742	 35.043	46.840	 12.863	 157.527
7.508	 11.709	 58.448	12.687	89.365	 34.704	48.059	 12.734	 157.592
7.545	 11.743	 58.520	12.663	88.800	 34.996	47.430	 12.701	 157.915
7.582	 11.687	 58.895	12.654	88.339	 35.090	46.518	 12.760	 158.617
7.620	 11.727	 58.926	12.649	87.928	 35.045	50.425	 12.809	 159.087
7.657	 11.685	 59.136	12.631	87.534	 34.584	50.872	 12.741	 158.782
7.695	 11.644	 59.449	12.622	87.010	 35.131	47.482	 12.728	 159.510
7.732	 11.681	 59.605	12.614	86.514	 34.739	48.962	 12.723	 160.115
7.770	 11.672	 59.625	12.598	86.125	 34.724	48.722	 12.709	 160.601
7.807	 11.680	 60.065	12.586	85.633	 34.691	46.552	 12.661	 161.047
7.845	 11.654	 60.037	12.560	85.235	 34.418	47.267	 12.712	 160.911
7.882	 11.663	 60.337	12.555	84.832	 34.117	47.995	 12.624	 161.975
7.920	 11.604	 60.682	12.548	84.420	 34.425	49.367	 12.617	 162.463
7.957	 11.643	 60.809	12.533	83.986	 34.947	45.747	 12.538	 162.664
7.995	 11.652	 61.141	12.513	83.514	 34.435	48.758	 12.578	 163.244
8.032	 11.636	 61.332	12.512	83.031	 33.970	45.251	 12.582	 163.111
8.070	 11.599	 61.510	12.486	82.543	 34.197	47.688	 12.547	 163.544
8.107	 11.590	 61.537	12.486	82.205	 33.953	44.119	 12.563	 164.437
8.145	 11.585	 62.065	12.464	81.740	 34.083	47.763	 12.521	 164.570
8.182	 11.573	 62.131	12.474	81.289	 34.047	45.262	 12.512	 164.695
8.220	 11.557	 62.403	12.437	80.878	 34.373	47.739	 12.485	 165.391
8.257	 11.529	 62.412	12.429	80.511	 33.985	44.275	 12.480	 166.185
8.295	 11.527	 62.784	12.414	80.017	 34.055	47.083	 12.427	 166.230
8.332	 11.532	 62.988	12.401	79.507	 33.714	45.336	 12.480	 166.881
8.370	 11.506	 63.213	12.389	79.142	 34.000	45.661	 12.433	 167.272
8.407	 11.511	 63.474	12.378	78.697	 33.475	42.186	 12.435	 167.556
8.445	 11.476	 63.816	12.366	78.261	 33.844	45.638	 12.391	 167.798
8.482	 11.486	 63.642	12.345	77.769	 33.965	47.442	 12.387	 168.160
8.520	 11.484	 64.067	12.331	77.362	 34.383	46.971	 12.476	 168.762
8.557	 11.471	 64.186	12.320	76.920	 34.256	45.745	 12.369	 169.235
8.595	 11.407	 64.326	12.306	76.550	 34.288	45.557	 12.308	 169.457
8.632	 11.440	 64.843	12.291	76.043	 33.663	43.502	 12.336	 169.658
8.670	 11.432	 65.128	12.287	75.667	 33.745	41.714	 12.316	 170.017
8.707	 11.393	 65.155	12.274	75.185	 33.854	43.783	 12.319	 170.596
8.745	 11.402	 65.274	12.254	74.808	 33.467	43.492	 12.237	 170.780
8.782	 11.414	 65.391	12.238	74.410	 33.630	44.161	 12.281	 171.506
8.820	 11.368	 65.889	12.234	73.898	 33.393	41.805	 12.217	 171.795
8.857	 11.360	 66.045	12.220	73.467	 33.263	43.850	 12.218	 171.928
8.895	 11.333	 66.260	12.206	73.106	 33.147	41.261	 12.224	 172.189
8.932	 11.346	 66.368	12.194	72.689	 33.323	43.780	 12.178	 172.776
8.970	 11.358	 66.515	12.183	72.293	 32.978	41.657	 12.175	 173.250
9.007	 11.281	 67.057	12.167	71.785	 33.185	40.464	 12.148	 173.511
9.044	 11.269	 67.267	12.168	71.432	 33.164	38.261	 12.082	 174.204
9.082	 11.288	 67.391	12.150	70.941	 33.104	41.462	 12.130	 174.378
9.119	 11.284	 67.846	12.133	70.424	 33.009	43.275	 12.105	 174.621
9.157	 11.251	 67.608	12.120	70.165	 32.769	41.129	 12.096	 174.908
9.194	 11.264	 68.044	12.107	69.685	 33.261	42.754	 12.158	 175.456
9.232	 11.242	 68.270	12.099	69.240	 32.854	40.605	 12.075	 176.043
9.269	 11.215	 68.596	12.081	68.765	 32.899	39.907	 12.093	 176.087
9.307	 11.212	 68.865	12.068	68.406	 32.907	40.276	 12.060	 176.692
9.344	 11.170	 69.200	12.067	67.904	 33.265	42.458	 12.023	 177.166
9.382	 11.182	 69.499	12.045	67.515	 33.347	39.303	 12.006	 177.348
9.419	 11.144	 69.219	12.035	67.194	 32.441	38.984	 11.999	 177.996
9.457	 11.119	 69.485	12.019	66.786	 32.870	43.430	 12.015	 177.940
9.494	 11.100	 69.999	12.012	66.253	 32.969	39.522	 12.000	 178.727
9.532	 11.138	 70.134	12.000	65.888	 32.945	40.227	 11.912	 178.950
9.569	 11.113	 70.609	11.988	65.458	 32.225	37.685	 11.887	 179.383
9.607	 11.096	 70.262	11.978	65.012	 32.585	33.775	 11.943	 179.863
9.644	 11.050	 70.485	11.956	64.617	 32.153	37.978	 11.937	179.895
9.682	 11.064	 71.152	11.941	64.224	 32.437	37.551	 11.945	179.456
9.719	 11.026	 71.403	11.937	63.784	 32.865	38.020	 11.848	179.061
9.757	 11.075	 71.594	11.925	63.302	 32.384	37.734	 11.882	178.709
9.794	 11.022	 71.832	11.911	62.965	 32.228	39.082	 11.858	178.418
9.832	 10.982	 72.240	11.906	62.592	 32.072	36.386	 11.880	178.496
9.869	 11.005	 72.509	11.886	62.128	 32.652	38.182	 11.863	177.952
9.907	 10.953	 72.608	11.866	61.675	 32.238	35.279	 11.882	177.639
9.944	 10.945	 72.747	11.861	61.370	 32.186	35.729	 11.900	177.082
9.982	 10.972	 73.177	11.846	60.862	 32.247	38.032	 11.841	176.919
10.019	 10.944	 73.330	11.844	60.439	 32.119	33.892	 11.766	175.980
10.057	 10.887	 73.310	11.818	60.059	 31.680	36.984	 11.804	175.995
10.094	 10.871	 73.823	11.820	59.541	 31.849	36.709	 11.860	175.371
10.132	 10.929	 74.041	11.786	59.256	 32.126	32.857	 11.732	175.169
10.169	 10.899	 74.496	11.788	58.827	 32.290	36.405	 11.749	175.123
10.207	 10.853	 74.647	11.786	58.418	 31.987	33.704	 11.740	174.586
10.244	 10.864	 74.924	11.759	57.971	 31.665	34.466	 11.743	174.083
10.282	 10.799	 74.964	11.766	57.646	 31.884	37.018	 11.696	173.715
10.319	 10.834	 75.248	11.741	57.238	 31.872	36.438	 11.684	173.814
10.357	 10.791	 75.662	11.733	56.779	 31.818	38.657	 11.680	173.209
10.394	 10.765	 75.810	11.723	56.362	 32.123	37.872	 11.617	172.806
10.432	 10.764	 76.197	11.700	55.898	 31.932	36.096	 11.678	172.552
10.469	 10.705	 76.343	11.700	55.574	 31.360	34.140	 11.642	172.153
10.507	 10.720	 76.444	11.682	55.152	 31.985	35.429	 11.614	171.617
10.544	 10.665	 76.843	11.662	54.702	 31.841	31.074	 11.581	171.868
10.581	 10.682	 77.213	11.655	54.355	 31.597	31.158	 11.622	170.873
10.619	 10.639	 77.245	11.655	53.995	 31.591	33.353	 11.591	170.849
10.656	 10.668	 77.764	11.643	53.403	 31.439	34.257	 11.581	170.476
