! MMA017AA S Parameters
! Please see datasheet for reference plane information															
! MMA017AA Wafer 16134 018
! Vd=4V;Id=87.01mA;Temp=25C								
# GHZ S DB R 50								
! Freq	dBS11	angS11	dBS21	angS21	dBS12	angS12	dBS22	angS22
0.010	 8.149	 1.184	6.696	179.568	 41.731	6.443	 16.310	 4.311
0.047	 8.211	 1.071	6.548	 176.464	 62.592	 50.169	 15.795	5.354
0.085	 8.169	 1.595	6.768	 174.537	 66.918	71.414	 14.449	7.372
0.122	 8.151	 2.357	6.959	 172.565	 57.047	29.837	 14.072	6.948
0.160	 8.167	 3.025	7.104	 171.057	 65.071	123.678	 13.927	1.769
0.197	 8.166	 3.979	7.279	 169.648	 54.276	46.118	 13.589	 2.288
0.235	 8.206	 4.520	7.500	 168.256	 60.233	43.784	 13.460	 2.903
0.272	 8.212	 5.352	7.697	 167.158	 53.502	26.129	 13.563	 4.871
0.310	 8.275	 6.186	7.945	 166.200	 60.720	170.260	 13.471	 8.292
0.347	 8.233	 6.671	8.188	 165.316	 57.224	73.780	 13.306	 11.008
0.385	 8.255	 7.380	8.432	 164.971	 60.334	96.199	 13.260	 11.811
0.422	 8.262	 8.351	8.665	 164.614	 55.356	63.697	 13.409	 12.987
0.460	 8.327	 8.830	8.847	 164.259	 53.161	80.484	 13.525	 15.369
0.497	 8.343	 9.611	9.092	 163.912	 59.034	90.299	 13.656	 18.157
0.535	 8.365	 10.517	9.321	 163.851	 59.849	18.030	 13.564	 19.457
0.572	 8.378	 10.812	9.542	 164.034	 55.613	85.198	 13.580	 20.673
0.610	 8.390	 11.539	9.749	 164.010	 61.348	102.073	 13.692	 22.334
0.647	 8.449	 12.418	9.957	 164.214	 57.368	97.165	 13.635	 24.136
0.685	 8.491	 12.780	10.151	 164.493	 56.005	119.560	 13.686	 25.466
0.722	 8.527	 13.718	10.343	 164.871	 55.945	79.420	 13.765	 26.922
0.760	 8.554	 14.158	10.528	 165.367	 52.662	64.432	 13.726	 28.285
0.797	 8.598	 14.800	10.688	 165.802	 53.865	88.009	 13.831	 29.998
0.835	 8.640	 15.615	10.865	 166.304	 56.905	98.626	 13.875	 31.273
0.872	 8.685	 15.914	11.018	 166.902	 51.635	70.298	 13.894	 32.699
0.910	 8.685	 16.794	11.171	 167.492	 54.202	63.973	 13.895	 33.899
0.947	 8.739	 17.361	11.313	 168.191	 54.816	64.636	 13.945	 35.361
0.985	 8.788	 17.991	11.451	 168.748	 51.721	67.326	 13.983	 36.570
1.022	 8.832	 18.386	11.577	 169.515	 51.855	58.344	 14.026	 37.854
1.060	 8.871	 18.877	11.704	 170.219	 51.213	64.988	 14.034	 39.113
1.097	 8.901	 19.318	11.822	 170.932	 53.904	75.584	 14.117	 40.285
1.135	 8.995	 20.041	11.934	 171.686	 50.382	69.562	 14.128	 41.475
1.172	 9.017	 20.345	12.038	 172.335	 52.781	87.060	 14.188	 42.859
1.210	 9.054	 21.043	12.133	 173.150	 50.814	73.883	 14.264	 44.007
1.247	 9.102	 21.562	12.236	 173.978	 50.998	86.944	 14.257	 45.456
1.285	 9.148	 21.938	12.320	 174.714	 49.749	91.420	 14.339	 46.139
1.322	 9.208	 22.474	12.412	 175.472	 51.227	85.412	 14.308	 47.077
1.360	 9.269	 22.985	12.486	 176.334	 49.242	76.191	 14.370	 48.240
1.397	 9.301	 23.468	12.571	 176.994	 49.683	79.842	 14.420	 49.665
1.435	 9.352	 24.012	12.639	 177.852	 49.173	83.211	 14.494	 50.427
1.472	 9.395	 24.312	12.711	 178.582	 47.905	78.380	 14.469	 51.573
1.510	 9.454	 24.828	12.765	 179.385	 50.270	82.716	 14.480	 52.635
1.547	 9.490	 25.296	12.837	179.804	 49.476	73.611	 14.543	 53.638
1.584	 9.543	 25.677	12.888	179.009	 49.766	80.900	 14.599	 54.136
1.622	 9.576	 26.117	12.946	178.270	 47.964	82.806	 14.648	 55.433
1.659	 9.605	 26.528	13.008	177.465	 48.089	79.444	 14.632	 56.459
1.697	 9.673	 26.859	13.048	176.725	 46.736	78.036	 14.638	 57.600
1.734	 9.727	 27.221	13.099	175.919	 48.136	82.077	 14.689	 58.577
1.772	 9.773	 27.784	13.148	175.188	 48.006	59.086	 14.681	 59.879
1.809	 9.808	 28.037	13.186	174.501	 47.607	74.226	 14.743	 60.249
1.847	 9.839	 28.173	13.237	173.620	 47.325	81.626	 14.763	 61.362
1.884	 9.893	 28.559	13.273	172.908	 47.165	72.961	 14.800	 61.972
1.922	 9.940	 28.802	13.300	172.157	 49.000	84.478	 14.789	 63.133
1.959	 9.976	 29.404	13.316	171.383	 47.912	89.560	 14.833	 64.263
1.997	 10.030	 29.753	13.367	170.618	 47.609	70.600	 14.793	 65.310
2.034	 10.060	 30.134	13.412	169.854	 45.899	70.926	 14.797	 66.279
2.072	 10.117	 30.259	13.427	169.184	 45.348	74.407	 14.885	 66.509
2.109	 10.152	 30.806	13.451	168.377	 46.996	82.702	 14.852	 67.711
2.147	 10.207	 31.194	13.484	167.641	 46.490	77.242	 14.875	 68.687
2.184	 10.257	 31.198	13.515	166.961	 48.093	72.385	 14.815	 69.347
2.222	 10.279	 31.360	13.538	166.272	 45.198	62.952	 14.917	 69.793
2.259	 10.292	 31.599	13.561	165.537	 43.636	71.395	 14.793	 70.928
2.297	 10.327	 32.174	13.581	164.764	 46.399	90.411	 14.940	 71.738
2.334	 10.404	 32.384	13.592	164.055	 45.013	75.946	 14.914	 72.427
2.372	 10.449	 32.628	13.597	163.375	 45.002	64.948	 14.877	 73.502
2.409	 10.515	 32.861	13.636	162.656	 46.138	75.866	 14.939	 74.502
2.447	 10.508	 33.520	13.651	162.025	 44.956	76.168	 14.954	 74.507
2.484	 10.574	 33.598	13.661	161.271	 44.972	72.929	 14.864	 75.633
2.522	 10.555	 33.800	13.677	160.542	 45.115	69.764	 14.916	 76.293
2.559	 10.624	 34.001	13.685	159.855	 46.297	68.654	 14.940	 77.308
2.597	 10.649	 34.295	13.704	159.130	 44.298	72.988	 14.987	 78.106
2.634	 10.698	 34.259	13.712	158.553	 44.242	73.613	 14.978	 79.162
2.672	 10.733	 34.557	13.722	157.856	 45.078	62.646	 14.963	 79.754
2.709	 10.782	 35.074	13.732	157.199	 43.655	66.019	 14.960	 80.719
2.747	 10.796	 35.322	13.724	156.547	 44.292	77.726	 14.915	 81.432
2.784	 10.812	 35.190	13.751	155.908	 44.059	72.638	 14.924	 82.180
2.822	 10.869	 35.588	13.754	155.190	 44.316	79.279	 14.951	 83.167
2.859	 10.889	 35.882	13.754	154.463	 43.610	70.125	 14.880	 83.140
2.897	 10.934	 35.852	13.747	153.866	 42.009	70.393	 14.860	 84.421
2.934	 10.975	 36.311	13.771	153.221	 43.190	76.128	 14.937	 85.038
2.972	 11.010	 36.452	13.773	152.566	 42.951	65.752	 14.967	 85.758
3.009	 11.006	 36.661	13.775	151.930	 43.259	74.227	 14.919	 86.030
3.046	 11.076	 36.838	13.785	151.320	 43.508	74.658	 14.851	 87.195
3.084	 11.069	 37.130	13.787	150.745	 42.124	74.965	 14.852	 87.955
3.121	 11.131	 37.338	13.776	150.048	 42.401	71.688	 14.881	 88.425
3.159	 11.131	 37.633	13.792	149.304	 43.628	75.951	 14.900	 89.170
3.196	 11.165	 37.536	13.797	148.772	 42.849	67.569	 14.902	 89.783
3.234	 11.169	 38.065	13.800	148.124	 42.926	71.755	 14.870	 90.508
3.271	 11.188	 38.225	13.784	147.493	 43.141	70.200	 14.830	 90.855
3.309	 11.225	 38.479	13.798	146.838	 41.721	67.533	 14.850	 92.464
3.346	 11.295	 38.362	13.792	146.194	 41.922	62.448	 14.823	 92.787
3.384	 11.271	 38.525	13.775	145.562	 42.227	69.797	 14.840	 93.401
3.421	 11.294	 38.877	13.780	145.017	 41.614	69.873	 14.798	 94.264
3.459	 11.315	 39.195	13.789	144.313	 42.708	71.106	 14.832	 94.650
3.496	 11.351	 39.109	13.786	143.827	 41.187	70.406	 14.850	 95.198
3.534	 11.403	 39.488	13.771	143.254	 42.390	75.114	 14.821	 95.656
3.571	 11.367	 39.398	13.778	142.628	 41.719	71.256	 14.833	 96.368
3.609	 11.425	 39.622	13.772	142.007	 42.534	72.068	 14.743	 97.302
3.646	 11.428	 39.891	13.778	141.438	 41.603	71.236	 14.828	 97.688
3.684	 11.485	 40.180	13.783	140.898	 41.729	67.789	 14.777	 98.599
3.721	 11.486	 40.126	13.777	140.213	 41.407	64.693	 14.737	 99.022
3.759	 11.489	 40.632	13.756	139.601	 40.963	67.353	 14.690	 99.711
3.796	 11.534	 40.679	13.762	139.053	 42.483	69.723	 14.679	 100.173
3.834	 11.543	 40.526	13.762	138.460	 41.860	69.884	 14.708	 100.726
3.871	 11.584	 41.194	13.750	137.799	 40.502	66.833	 14.694	 101.503
3.909	 11.590	 40.925	13.743	137.251	 40.419	67.841	 14.771	 101.804
3.946	 11.541	 41.227	13.746	136.705	 40.484	69.160	 14.603	 102.888
3.984	 11.582	 41.773	13.746	136.136	 40.177	70.412	 14.671	 103.212
4.021	 11.635	 41.804	13.729	135.481	 41.248	65.157	 14.573	 103.598
4.059	 11.606	 41.962	13.724	135.042	 40.860	65.410	 14.645	 104.332
4.096	 11.616	 42.104	13.741	134.480	 40.145	66.528	 14.594	 105.214
4.134	 11.638	 42.212	13.707	133.847	 40.714	66.968	 14.555	 105.874
4.171	 11.624	 42.518	13.705	133.275	 40.731	63.702	 14.588	 106.254
4.209	 11.688	 42.596	13.695	132.681	 39.292	63.789	 14.540	 106.051
4.246	 11.695	 42.634	13.700	132.116	 40.564	64.685	 14.544	 107.614
4.284	 11.741	 43.202	13.679	131.568	 39.513	71.397	 14.447	 108.019
4.321	 11.716	 43.104	13.680	131.059	 40.486	61.523	 14.415	 108.614
4.359	 11.727	 43.402	13.691	130.425	 39.272	66.415	 14.377	 108.865
4.396	 11.758	 43.487	13.655	129.890	 39.313	67.903	 14.480	 109.598
4.434	 11.744	 43.830	13.663	129.215	 40.659	64.585	 14.410	 110.368
4.471	 11.783	 43.818	13.654	128.786	 39.475	65.866	 14.418	 111.107
4.509	 11.758	 44.115	13.631	128.182	 40.021	65.099	 14.373	 111.315
4.546	 11.752	 43.977	13.625	127.641	 39.768	60.572	 14.337	 112.197
4.583	 11.820	 44.101	13.618	127.128	 39.985	67.821	 14.341	 112.879
4.621	 11.794	 44.379	13.618	126.441	 39.275	69.470	 14.327	 113.206
4.658	 11.800	 44.735	13.602	125.966	 39.339	61.129	 14.274	 113.928
4.696	 11.802	 44.691	13.589	125.467	 39.315	60.539	 14.237	 113.979
4.733	 11.824	 44.945	13.587	124.914	 39.351	67.365	 14.280	 114.957
4.771	 11.797	 45.109	13.572	124.359	 39.325	64.078	 14.253	 115.884
4.808	 11.861	 45.419	13.559	123.883	 39.817	64.415	 14.218	 116.128
4.846	 11.840	 45.432	13.546	123.335	 38.535	66.053	 14.227	 116.609
4.883	 11.844	 45.540	13.546	122.738	 39.417	63.445	 14.162	 117.281
4.921	 11.842	 45.872	13.516	122.208	 39.011	64.773	 14.147	 117.280
4.958	 11.854	 46.023	13.532	121.771	 39.319	61.941	 14.187	 118.242
4.996	 11.861	 46.128	13.517	121.161	 38.698	68.468	 14.132	 118.772
5.033	 11.908	 46.083	13.504	120.658	 38.171	60.406	 14.052	 119.534
5.071	 11.872	 46.743	13.488	120.175	 39.513	59.747	 14.130	 119.965
5.108	 11.885	 46.413	13.483	119.660	 39.085	61.992	 14.042	 120.597
5.146	 11.874	 46.696	13.471	119.084	 38.867	64.345	 14.044	 120.953
5.183	 11.897	 46.957	13.454	118.557	 38.317	64.398	 14.034	 121.442
5.221	 11.931	 47.006	13.450	118.003	 38.736	63.031	 14.008	 121.756
5.258	 11.886	 47.480	13.443	117.580	 37.537	59.985	 14.008	 122.812
5.296	 11.919	 47.576	13.411	116.961	 38.445	62.680	 13.949	 123.001
5.333	 11.908	 47.659	13.412	116.565	 37.876	59.204	 13.963	 124.290
5.371	 11.952	 47.797	13.407	115.983	 38.141	64.207	 13.924	 124.131
5.408	 11.922	 48.099	13.380	115.472	 37.618	62.129	 13.859	 124.695
5.446	 11.916	 47.910	13.374	114.923	 37.594	58.509	 13.897	 124.643
5.483	 11.896	 48.361	13.383	114.507	 37.451	63.371	 13.896	 125.693
5.521	 11.919	 48.109	13.367	113.988	 37.957	62.636	 13.923	 125.989
5.558	 11.955	 48.415	13.336	113.395	 37.964	61.023	 13.884	 126.468
5.596	 11.893	 48.713	13.348	112.971	 37.114	60.568	 13.884	 128.027
5.633	 11.921	 49.141	13.335	112.334	 37.638	60.183	 13.772	 127.809
5.671	 11.949	 49.683	13.301	111.893	 37.728	69.559	 13.756	 128.466
5.708	 11.944	 49.512	13.304	111.370	 37.953	55.302	 13.769	 129.264
5.746	 11.908	 49.294	13.290	110.969	 37.548	64.645	 13.734	 129.432
5.783	 11.898	 49.750	13.286	110.313	 37.495	56.978	 13.768	 128.977
5.821	 11.915	 49.837	13.271	109.900	 37.164	60.245	 13.796	 130.410
5.858	 11.910	 50.115	13.255	109.437	 37.397	56.074	 13.657	 130.225
5.896	 11.916	 50.116	13.256	108.891	 37.461	60.934	 13.687	 131.398
5.933	 11.909	 50.539	13.230	108.453	 37.071	55.573	 13.666	 131.817
5.971	 11.892	 50.449	13.219	107.892	 36.644	60.646	 13.655	 132.317
6.008	 11.931	 50.729	13.218	107.473	 37.094	53.348	 13.696	 132.224
6.045	 11.855	 51.028	13.189	106.832	 37.864	60.022	 13.607	 133.338
6.083	 11.917	 51.308	13.180	106.523	 37.010	54.749	 13.520	 134.123
6.120	 11.931	 51.576	13.179	105.880	 36.163	56.340	 13.546	 134.233
6.158	 11.871	 51.786	13.151	105.419	 36.890	61.469	 13.598	 135.158
6.195	 11.921	 51.670	13.133	104.914	 36.120	53.699	 13.478	 134.561
6.233	 11.882	 51.878	13.136	104.526	 36.428	56.065	 13.478	 136.091
6.270	 11.881	 51.890	13.126	104.043	 37.123	54.178	 13.535	 135.988
6.308	 11.890	 52.470	13.101	103.520	 36.636	56.887	 13.503	 136.827
6.345	 11.881	 52.695	13.094	103.100	 36.954	49.674	 13.454	 136.732
6.383	 11.896	 52.802	13.096	102.484	 36.921	51.621	 13.398	 137.822
6.420	 11.860	 52.693	13.076	101.987	 36.379	53.683	 13.399	 138.169
6.458	 11.878	 53.179	13.048	101.564	 36.664	51.454	 13.359	 138.650
6.495	 11.875	 53.312	13.040	101.135	 36.453	56.044	 13.354	 138.831
6.533	 11.893	 53.581	13.036	100.543	 36.053	56.174	 13.422	 139.543
6.570	 11.883	 53.655	13.014	100.088	 36.502	54.143	 13.426	 140.203
6.608	 11.862	 53.883	13.005	99.659	 35.864	56.763	 13.292	 140.214
6.645	 11.843	 54.279	12.986	99.134	 36.291	60.010	 13.316	 140.922
6.683	 11.819	 54.087	12.989	98.662	 35.943	50.622	 13.297	 141.132
6.720	 11.839	 54.364	12.964	98.174	 35.968	54.450	 13.265	 142.057
6.758	 11.878	 54.593	12.954	97.713	 35.601	50.975	 13.257	 141.817
6.795	 11.815	 54.557	12.933	97.238	 36.080	54.761	 13.222	 142.745
6.833	 11.813	 54.760	12.927	96.760	 36.082	51.874	 13.188	 143.010
6.870	 11.827	 55.072	12.915	96.328	 35.924	56.346	 13.175	 143.336
6.908	 11.869	 55.335	12.905	95.811	 35.814	52.919	 13.194	 143.742
6.945	 11.816	 55.613	12.886	95.373	 35.946	52.732	 13.148	 144.583
6.983	 11.865	 55.600	12.872	94.899	 35.569	55.651	 13.113	 144.809
7.020	 11.794	 56.324	12.877	94.375	 35.835	48.835	 13.161	 145.223
7.058	 11.815	 56.065	12.852	93.989	 35.271	52.070	 13.075	 145.703
7.095	 11.798	 56.365	12.833	93.487	 35.666	47.416	 13.128	 146.362
7.133	 11.816	 56.466	12.827	93.062	 35.340	51.379	 13.034	 146.865
7.170	 11.760	 56.906	12.817	92.513	 35.674	50.290	 13.088	 147.404
7.208	 11.739	 57.049	12.799	92.075	 35.309	52.236	 13.023	 147.890
7.245	 11.746	 56.926	12.774	91.660	 35.212	52.725	 13.020	 148.401
7.283	 11.759	 57.500	12.773	91.175	 35.428	50.191	 12.986	 148.411
7.320	 11.740	 57.597	12.753	90.741	 35.263	51.909	 13.009	 149.276
7.358	 11.777	 57.804	12.734	90.284	 35.462	50.486	 12.973	 149.588
7.395	 11.752	 57.946	12.737	89.843	 35.408	53.183	 12.902	 149.941
7.433	 11.745	 58.115	12.708	89.291	 34.802	51.795	 12.922	 150.345
7.470	 11.697	 58.304	12.700	88.838	 35.050	46.315	 12.897	 150.987
7.508	 11.671	 58.643	12.700	88.463	 35.045	48.515	 12.857	 150.962
7.545	 11.716	 58.605	12.676	87.967	 34.913	50.550	 12.899	 151.902
7.582	 11.686	 58.955	12.661	87.505	 34.923	52.909	 12.817	 152.171
7.620	 11.679	 59.281	12.645	87.072	 35.181	50.135	 12.924	 152.473
7.657	 11.652	 58.944	12.642	86.685	 34.882	49.761	 12.787	 152.677
7.695	 11.600	 59.680	12.627	86.161	 34.611	49.513	 12.767	 153.867
7.732	 11.675	 59.881	12.608	85.694	 34.872	50.843	 12.780	 154.121
7.770	 11.652	 59.905	12.614	85.325	 34.751	49.913	 12.764	 154.309
7.807	 11.635	 60.275	12.597	84.775	 34.910	48.944	 12.721	 154.869
7.845	 11.619	 60.458	12.565	84.366	 34.863	47.074	 12.666	 154.439
7.882	 11.598	 60.570	12.569	83.951	 34.416	47.853	 12.669	 155.110
7.920	 11.573	 60.935	12.563	83.468	 34.278	49.256	 12.735	 155.758
7.957	 11.595	 61.091	12.530	83.052	 34.211	50.125	 12.605	 156.426
7.995	 11.569	 60.968	12.517	82.567	 34.226	46.436	 12.723	 156.666
8.032	 11.526	 61.233	12.522	82.122	 34.416	49.066	 12.659	 157.101
8.070	 11.557	 61.643	12.487	81.643	 33.735	48.051	 12.672	 157.614
8.107	 11.566	 61.842	12.485	81.321	 34.438	46.756	 12.620	 158.245
8.145	 11.519	 62.045	12.469	80.843	 34.147	46.576	 12.568	 158.563
8.182	 11.510	 62.216	12.463	80.308	 34.449	45.010	 12.575	 158.714
8.220	 11.493	 62.551	12.438	79.851	 34.238	44.671	 12.586	 159.733
8.257	 11.461	 62.685	12.434	79.504	 33.964	44.293	 12.530	 160.149
8.295	 11.452	 62.931	12.421	79.039	 34.012	48.560	 12.542	 159.964
8.332	 11.440	 63.196	12.404	78.495	 34.034	47.796	 12.571	 160.704
8.370	 11.453	 63.480	12.392	78.153	 34.268	41.406	 12.490	 161.133
8.407	 11.439	 63.845	12.377	77.703	 33.779	44.661	 12.494	 161.317
8.445	 11.439	 64.046	12.373	77.216	 33.866	46.762	 12.457	 161.958
8.482	 11.416	 63.916	12.348	76.807	 33.461	44.450	 12.477	 161.996
8.520	 11.397	 64.306	12.334	76.401	 34.023	44.015	 12.493	 162.920
8.557	 11.387	 64.523	12.319	75.922	 33.726	45.756	 12.465	 163.169
8.595	 11.400	 64.820	12.310	75.491	 33.752	45.296	 12.378	 163.587
8.632	 11.399	 65.034	12.293	75.048	 33.762	44.754	 12.429	 163.984
8.670	 11.370	 65.209	12.283	74.617	 33.192	43.916	 12.384	 164.477
8.707	 11.358	 65.371	12.269	74.129	 33.530	43.568	 12.395	 164.987
8.745	 11.314	 65.662	12.255	73.740	 33.420	41.166	 12.381	 164.780
8.782	 11.330	 65.783	12.248	73.353	 33.674	42.524	 12.327	 165.637
8.820	 11.303	 65.846	12.235	72.861	 33.479	44.330	 12.386	 166.035
8.857	 11.294	 66.359	12.218	72.457	 33.571	43.664	 12.309	 166.524
8.895	 11.280	 66.631	12.202	72.002	 33.186	42.367	 12.330	 166.583
8.932	 11.256	 67.010	12.204	71.634	 33.179	44.474	 12.332	 166.607
8.970	 11.301	 66.975	12.188	71.113	 33.075	41.773	 12.288	 167.565
9.007	 11.220	 67.239	12.166	70.676	 33.127	43.504	 12.197	 167.566
9.044	 11.207	 67.427	12.164	70.376	 33.313	40.867	 12.284	 168.227
9.082	 11.193	 67.810	12.153	69.818	 32.881	42.979	 12.208	 168.286
9.119	 11.230	 67.835	12.131	69.473	 33.309	41.840	 12.239	 169.131
9.157	 11.233	 68.067	12.119	69.031	 32.864	43.023	 12.187	 169.653
9.194	 11.150	 68.323	12.107	68.559	 32.921	43.638	 12.154	 169.705
9.232	 11.161	 68.531	12.096	68.164	 33.224	40.331	 12.140	 170.373
9.269	 11.124	 68.811	12.080	67.673	 32.632	38.209	 12.115	 170.840
9.307	 11.133	 69.098	12.066	67.319	 32.452	39.205	 12.092	 170.948
9.344	 11.105	 69.211	12.062	66.854	 32.793	39.658	 12.098	 171.365
9.382	 11.063	 69.520	12.037	66.322	 32.631	37.884	 12.112	 171.786
9.419	 11.090	 69.718	12.023	66.034	 32.809	40.924	 12.075	 172.263
9.457	 11.091	 70.137	12.025	65.577	 32.424	39.017	 12.080	 172.766
9.494	 11.050	 70.138	12.000	65.134	 32.267	36.863	 12.088	 173.218
9.532	 11.059	 70.351	11.996	64.706	 32.552	38.537	 12.067	 173.324
9.569	 11.019	 70.710	11.985	64.289	 32.412	39.980	 12.066	 173.676
9.607	 10.990	 70.769	11.979	63.846	 32.770	39.528	 12.060	 174.112
9.644	 10.991	 71.439	11.948	63.407	 32.690	39.605	 12.056	 174.517
9.682	 10.975	 71.540	11.932	63.091	 32.188	39.564	 12.009	 175.115
9.719	 10.940	 71.708	11.933	62.565	 32.778	38.615	 11.962	 175.336
9.757	 10.954	 71.953	11.915	62.087	 32.146	38.247	 12.007	 175.789
9.794	 10.947	 72.029	11.898	61.749	 32.434	39.540	 12.013	 176.228
9.832	 10.957	 72.725	11.891	61.361	 31.717	38.142	 11.963	 176.468
9.869	 10.910	 72.900	11.879	60.902	 32.065	39.777	 11.911	 177.221
9.907	 10.918	 73.004	11.855	60.527	 32.370	38.298	 11.942	 176.999
9.944	 10.859	 73.151	11.853	60.178	 32.132	35.506	 11.963	 177.379
9.982	 10.861	 73.785	11.852	59.597	 32.146	37.782	 11.953	 177.932
10.019	 10.875	 73.820	11.819	59.298	 32.134	38.483	 11.903	 178.530
10.057	 10.851	 74.015	11.799	58.860	 32.134	38.142	 11.882	 178.847
10.094	 10.822	 74.395	11.806	58.410	 31.756	36.005	 11.931	 179.085
10.132	 10.805	 74.342	11.795	57.944	 31.697	33.680	 11.858	 178.979
10.169	 10.771	 74.743	11.777	57.575	 32.112	34.111	 11.835	 179.465
10.207	 10.800	 75.119	11.774	57.202	 31.709	35.915	 11.827	179.713
10.244	 10.755	 75.590	11.759	56.713	 31.911	33.706	 11.822	179.273
10.282	 10.723	 75.662	11.743	56.289	 31.665	36.126	 11.786	179.153
10.319	 10.750	 75.940	11.742	55.940	 31.888	35.823	 11.767	179.219
10.357	 10.697	 76.089	11.722	55.509	 31.709	33.791	 11.808	178.659
10.394	 10.682	 76.235	11.706	55.022	 31.383	32.967	 11.792	178.414
10.432	 10.670	 76.661	11.688	54.691	 31.399	31.413	 11.765	177.725
10.469	 10.652	 76.821	11.697	54.288	 31.625	34.412	 11.733	177.564
10.507	 10.640	 77.001	11.675	53.778	 31.517	35.109	 11.733	176.980
10.544	 10.602	 77.369	11.657	53.376	 31.244	34.563	 11.720	176.591
10.581	 10.618	 77.735	11.650	53.061	 31.569	31.464	 11.719	176.248
10.619	 10.575	 77.868	11.638	52.596	 31.264	34.948	 11.733	175.565
10.656	 10.579	 78.196	11.636	52.110	 31.346	33.602	 11.687	175.731
